time	Ix(U2:Ano)	Ix(U3:Cath)
0.000000000000000e+00	-1.664489e-13	-1.622546e-12
1.621428571428572e-10	-2.028529e-09	1.863624e-09
3.242857142857143e-10	-5.589140e-09	5.190984e-09
4.864285714285715e-10	-1.068200e-08	9.980460e-09
6.485714285714286e-10	-1.730711e-08	1.623205e-08
8.107142857142857e-10	-2.546446e-08	2.394576e-08
9.728571428571430e-10	-3.515407e-08	3.312158e-08
1.135000000000000e-09	-4.637592e-08	4.375951e-08
1.402142857142859e-09	-5.929541e-08	5.626344e-08
1.669285714285719e-09	-7.056258e-08	6.719695e-08
1.936428571428579e-09	-8.017742e-08	7.656003e-08
2.203571428571438e-09	-8.813994e-08	8.435269e-08
2.470714285714298e-09	-9.445013e-08	9.057492e-08
2.737857142857157e-09	-9.910800e-08	9.522672e-08
3.005000000000017e-09	-1.021135e-07	9.830810e-08
3.620714285714292e-09	-1.073329e-07	1.034950e-07
4.236428571428568e-09	-1.116289e-07	1.077389e-07
4.852142857142843e-09	-1.150013e-07	1.110397e-07
5.467857142857118e-09	-1.174502e-07	1.133976e-07
6.083571428571393e-09	-1.189757e-07	1.148125e-07
6.699285714285668e-09	-1.195777e-07	1.152843e-07
7.314999999999943e-09	-1.192562e-07	1.148131e-07
1.003499999999988e-08	-1.201873e-07	1.150997e-07
2.027500000000052e-08	-1.213337e-07	1.137958e-07
3.051500000000173e-08	-1.223390e-07	1.124333e-07
4.075499999999979e-08	-1.233090e-07	1.111186e-07
5.099499999999785e-08	-1.242450e-07	1.098500e-07
6.123499999999592e-08	-1.251483e-07	1.086260e-07
7.147499999999397e-08	-1.260199e-07	1.074451e-07
8.171499999999203e-08	-1.268610e-07	1.063056e-07
9.195499999999009e-08	-1.276725e-07	1.052061e-07
1.021949999999882e-07	-1.284557e-07	1.041452e-07
1.124349999999862e-07	-1.292114e-07	1.031216e-07
1.226749999999889e-07	-1.299407e-07	1.021340e-07
1.329150000000005e-07	-1.306444e-07	1.011810e-07
1.431550000000121e-07	-1.313234e-07	1.002615e-07
1.533950000000237e-07	-1.319786e-07	9.937436e-08
1.636350000000353e-07	-1.326108e-07	9.851833e-08
1.738750000000469e-07	-1.332209e-07	9.769238e-08
1.841150000000585e-07	-1.338096e-07	9.689543e-08
1.943550000000701e-07	-1.343777e-07	9.612647e-08
2.045950000000818e-07	-1.349258e-07	9.538451e-08
2.148350000000934e-07	-1.354548e-07	9.466862e-08
2.250750000001050e-07	-1.359651e-07	9.397787e-08
2.353150000001166e-07	-1.364576e-07	9.331139e-08
2.455550000001282e-07	-1.369328e-07	9.266830e-08
2.557950000001398e-07	-1.373914e-07	9.204780e-08
2.660350000001514e-07	-1.378339e-07	9.144910e-08
2.762750000001630e-07	-1.382608e-07	9.087141e-08
2.865150000001746e-07	-1.386728e-07	9.031402e-08
2.967550000001862e-07	-1.390703e-07	8.977620e-08
3.069950000001978e-07	-1.394539e-07	8.925727e-08
3.172350000002095e-07	-1.398240e-07	8.875656e-08
3.274750000002211e-07	-1.401811e-07	8.827345e-08
3.377150000002327e-07	-1.405257e-07	8.780729e-08
3.479550000002443e-07	-1.408583e-07	8.735750e-08
3.581950000002559e-07	-1.411791e-07	8.692351e-08
3.684350000002675e-07	-1.414887e-07	8.650476e-08
3.786750000002791e-07	-1.417875e-07	8.610072e-08
3.889150000002907e-07	-1.420757e-07	8.571087e-08
3.991550000003023e-07	-1.423539e-07	8.533470e-08
4.093950000003140e-07	-1.426223e-07	8.497175e-08
4.196350000003256e-07	-1.428812e-07	8.462154e-08
4.298750000003372e-07	-1.431311e-07	8.428363e-08
4.401150000003488e-07	-1.433722e-07	8.395758e-08
4.503550000003604e-07	-1.436049e-07	8.364299e-08
4.605950000003720e-07	-1.438294e-07	8.333944e-08
4.708350000003836e-07	-1.440460e-07	8.304655e-08
4.810750000003728e-07	-1.442550e-07	8.276395e-08
4.913150000003302e-07	-1.444566e-07	8.249127e-08
5.015550000002876e-07	-1.446512e-07	8.222816e-08
5.117950000002450e-07	-1.448390e-07	8.197430e-08
5.220350000002024e-07	-1.450202e-07	8.172935e-08
5.322750000001598e-07	-1.451950e-07	8.149300e-08
5.425150000001172e-07	-1.453637e-07	8.126495e-08
5.527550000000746e-07	-1.455264e-07	8.104491e-08
5.629950000000320e-07	-1.456835e-07	8.083259e-08
5.732349999999894e-07	-1.458350e-07	8.062774e-08
5.834749999999468e-07	-1.459813e-07	8.043007e-08
5.937149999999042e-07	-1.461223e-07	8.023934e-08
6.039549999998616e-07	-1.462585e-07	8.005532e-08
6.141949999998190e-07	-1.463898e-07	7.987775e-08
6.244349999997764e-07	-1.465166e-07	7.970642e-08
6.346749999997338e-07	-1.466389e-07	7.954110e-08
6.449149999996912e-07	-1.467569e-07	7.938159e-08
6.551549999996486e-07	-1.468707e-07	7.922769e-08
6.653949999996060e-07	-1.469806e-07	7.907919e-08
6.756349999995634e-07	-1.470866e-07	7.893589e-08
6.858749999995208e-07	-1.471889e-07	7.879763e-08
6.961149999994782e-07	-1.472876e-07	7.866423e-08
7.063549999994356e-07	-1.473828e-07	7.853551e-08
7.165949999993930e-07	-1.474747e-07	7.841131e-08
7.268349999993504e-07	-1.475634e-07	7.829148e-08
7.370749999993078e-07	-1.476489e-07	7.817584e-08
7.473149999992652e-07	-1.477315e-07	7.806428e-08
7.575549999992226e-07	-1.478111e-07	7.795663e-08
7.677949999991800e-07	-1.478880e-07	7.785275e-08
7.780349999991374e-07	-1.479622e-07	7.775253e-08
7.882749999990948e-07	-1.480337e-07	7.765582e-08
7.985149999990522e-07	-1.481027e-07	7.756251e-08
8.087549999990096e-07	-1.481694e-07	7.747248e-08
8.189949999989670e-07	-1.482336e-07	7.738561e-08
8.292349999989244e-07	-1.482957e-07	7.730178e-08
8.394749999988818e-07	-1.483555e-07	7.722091e-08
8.497149999988392e-07	-1.484132e-07	7.714287e-08
8.599549999987966e-07	-1.484690e-07	7.706757e-08
8.701949999987540e-07	-1.485227e-07	7.699492e-08
8.804349999987114e-07	-1.485746e-07	7.692481e-08
8.906749999986688e-07	-1.486247e-07	7.685717e-08
9.009149999986262e-07	-1.486729e-07	7.679191e-08
9.111549999985836e-07	-1.487195e-07	7.672893e-08
9.213949999985410e-07	-1.487645e-07	7.666817e-08
9.316349999984984e-07	-1.488079e-07	7.660954e-08
9.418749999984558e-07	-1.488498e-07	7.655296e-08
9.521149999984132e-07	-1.488901e-07	7.649838e-08
9.623549999984625e-07	-1.489291e-07	7.644571e-08
9.725949999985284e-07	-1.489667e-07	7.639489e-08
9.828349999985942e-07	-1.490030e-07	7.634586e-08
9.930749999986600e-07	-1.490380e-07	7.629855e-08
1.001165000000001e-06	-1.477621e-07	7.504787e-08
1.001284285714285e-06	-1.450988e-07	7.257118e-08
1.001403571428569e-06	-1.415787e-07	6.927594e-08
1.001522857142852e-06	-1.372019e-07	6.516217e-08
1.001642142857136e-06	-1.319685e-07	6.022986e-08
1.001761428571420e-06	-1.258784e-07	5.447902e-08
1.001880714285704e-06	-1.189315e-07	4.790964e-08
1.001999999999987e-06	-1.111280e-07	4.052172e-08
1.001999999999997e-06	-1.192093e-07	3.941518e-08
1.002000000000017e-06	-9.685755e-08	5.431634e-08
1.002000000000027e-06	-1.067917e-07	4.189871e-08
1.002000000000047e-06	-1.241763e-07	3.196460e-08
1.002000000000057e-06	-1.192093e-07	3.693165e-08
1.002000000000077e-06	-1.005960e-07	4.934051e-08
1.002000000000117e-06	-9.809931e-08	5.059105e-08
1.002000000000197e-06	-1.080334e-07	4.314047e-08
1.002000000000217e-06	-1.030664e-07	5.059105e-08
1.002000000000227e-06	-1.005828e-07	5.431634e-08
1.002010000000227e-06	-1.087681e-07	4.334870e-08
1.002020000000227e-06	-1.098218e-07	3.928162e-08
1.002184285714514e-06	-1.002575e-07	3.012289e-08
1.002348571428801e-06	-9.161485e-08	2.181913e-08
1.002512857143087e-06	-8.389371e-08	1.437033e-08
1.002677142857374e-06	-7.709412e-08	7.776487e-09
1.002841428571661e-06	-7.121608e-08	2.037609e-09
1.003005714285948e-06	-6.625959e-08	-2.846307e-09
1.003170000000234e-06	-6.222466e-08	-6.875262e-09
1.003180000000234e-06	-6.197715e-08	-7.120357e-09
1.003585714285951e-06	-5.443737e-08	-1.463540e-08
1.003991428571668e-06	-4.804608e-08	-2.099895e-08
1.004397142857385e-06	-4.280327e-08	-2.621099e-08
1.004802857143102e-06	-3.870894e-08	-3.027152e-08
1.005208571428819e-06	-3.576310e-08	-3.318056e-08
1.005614285714536e-06	-3.396573e-08	-3.493809e-08
1.006020000000253e-06	-3.331684e-08	-3.554412e-08
1.007075714285974e-06	-3.174192e-08	-3.691305e-08
1.008131428571695e-06	-3.046792e-08	-3.797224e-08
1.009187142857416e-06	-2.949486e-08	-3.872168e-08
1.010242857143137e-06	-2.882273e-08	-3.916137e-08
1.011298571428858e-06	-2.845153e-08	-3.929130e-08
1.012354285714579e-06	-2.838127e-08	-3.911149e-08
1.013410000000300e-06	-2.861193e-08	-3.862193e-08
1.013420000000300e-06	-2.861080e-08	-3.862072e-08
1.023660000000366e-06	-2.758751e-08	-3.728410e-08
1.033900000000432e-06	-2.661806e-08	-3.597593e-08
1.044140000000498e-06	-2.568272e-08	-3.471365e-08
1.054380000000564e-06	-2.478028e-08	-3.349565e-08
1.064620000000629e-06	-2.390960e-08	-3.232037e-08
1.074860000000695e-06	-2.306954e-08	-3.118633e-08
1.085100000000761e-06	-2.225902e-08	-3.009207e-08
1.095340000000827e-06	-2.147702e-08	-2.903621e-08
1.105580000000893e-06	-2.072251e-08	-2.801738e-08
1.115820000000959e-06	-1.999454e-08	-2.703430e-08
1.126060000001024e-06	-1.929216e-08	-2.608571e-08
1.136300000001090e-06	-1.861448e-08	-2.517041e-08
1.146540000001156e-06	-1.796062e-08	-2.428721e-08
1.156780000001222e-06	-1.732975e-08	-2.343501e-08
1.167020000001288e-06	-1.672106e-08	-2.261270e-08
1.177260000001353e-06	-1.613377e-08	-2.181925e-08
1.187500000001419e-06	-1.556712e-08	-2.105364e-08
1.197740000001485e-06	-1.502038e-08	-2.031489e-08
1.207980000001551e-06	-1.449286e-08	-1.960205e-08
1.218220000001617e-06	-1.398388e-08	-1.891424e-08
1.228460000001683e-06	-1.349279e-08	-1.825055e-08
1.238700000001748e-06	-1.301895e-08	-1.761015e-08
1.248940000001814e-06	-1.256176e-08	-1.699223e-08
1.259180000001880e-06	-1.212064e-08	-1.639598e-08
1.269420000001946e-06	-1.169502e-08	-1.582066e-08
1.279660000002012e-06	-1.128435e-08	-1.526553e-08
1.289900000002077e-06	-1.088811e-08	-1.472987e-08
1.300140000002143e-06	-1.050580e-08	-1.421301e-08
1.310380000002209e-06	-1.013691e-08	-1.371429e-08
1.320620000002275e-06	-9.780980e-09	-1.323307e-08
1.330860000002341e-06	-9.437553e-09	-1.276873e-08
1.341100000002407e-06	-9.106193e-09	-1.232069e-08
1.351340000002472e-06	-8.786470e-09	-1.188837e-08
1.361580000002538e-06	-8.477979e-09	-1.147122e-08
1.371820000002604e-06	-8.180323e-09	-1.106871e-08
1.382060000002670e-06	-7.893121e-09	-1.068032e-08
1.392300000002736e-06	-7.616006e-09	-1.030556e-08
1.402540000002802e-06	-7.348626e-09	-9.943957e-09
1.412780000002867e-06	-7.090635e-09	-9.595040e-09
1.423020000002933e-06	-6.841704e-09	-9.258367e-09
1.433260000002999e-06	-6.601516e-09	-8.933509e-09
1.443500000003065e-06	-6.369762e-09	-8.620051e-09
1.453740000003131e-06	-6.146148e-09	-8.317593e-09
1.463980000003196e-06	-5.930386e-09	-8.025748e-09
1.474220000003262e-06	-5.722200e-09	-7.744145e-09
1.484460000003328e-06	-5.521325e-09	-7.472425e-09
1.494700000003394e-06	-5.327504e-09	-7.210240e-09
1.504940000003460e-06	-5.140488e-09	-6.957257e-09
1.515180000003526e-06	-4.960039e-09	-6.713150e-09
1.525420000003591e-06	-4.785926e-09	-6.477611e-09
1.535660000003657e-06	-4.617927e-09	-6.250337e-09
1.545900000003723e-06	-4.455827e-09	-6.031040e-09
1.556140000003789e-06	-4.299418e-09	-5.819437e-09
1.566380000003855e-06	-4.148499e-09	-5.615261e-09
1.576620000003920e-06	-4.002881e-09	-5.418251e-09
1.586860000003986e-06	-3.862375e-09	-5.228153e-09
1.597100000004052e-06	-3.726802e-09	-5.044729e-09
1.607340000004118e-06	-3.595988e-09	-4.867740e-09
1.617580000004184e-06	-3.469768e-09	-4.696963e-09
1.627820000004250e-06	-3.347978e-09	-4.532179e-09
1.638060000004315e-06	-3.230465e-09	-4.373178e-09
1.648300000004381e-06	-3.117076e-09	-4.219757e-09
1.658540000004447e-06	-3.007669e-09	-4.071720e-09
1.668780000004513e-06	-2.902103e-09	-3.928879e-09
1.679020000004579e-06	-2.800241e-09	-3.791050e-09
1.689260000004645e-06	-2.701957e-09	-3.658059e-09
1.699500000004710e-06	-2.607122e-09	-3.529735e-09
1.709740000004776e-06	-2.515617e-09	-3.405914e-09
1.719980000004842e-06	-2.427324e-09	-3.286439e-09
1.730220000004908e-06	-2.342130e-09	-3.171156e-09
1.740460000004974e-06	-2.259927e-09	-3.059920e-09
1.750700000005039e-06	-2.180610e-09	-2.952588e-09
1.760940000005105e-06	-2.104077e-09	-2.849021e-09
1.771180000005171e-06	-2.030230e-09	-2.749091e-09
1.781420000005237e-06	-1.958976e-09	-2.652666e-09
1.791660000005303e-06	-1.890223e-09	-2.559626e-09
1.801900000005369e-06	-1.823884e-09	-2.469852e-09
1.812140000005434e-06	-1.759873e-09	-2.383228e-09
1.822380000005500e-06	-1.698108e-09	-2.299643e-09
1.832620000005566e-06	-1.638513e-09	-2.218993e-09
1.842860000005632e-06	-1.581009e-09	-2.141173e-09
1.853100000005698e-06	-1.525523e-09	-2.066083e-09
1.863340000005763e-06	-1.471985e-09	-1.993630e-09
1.873580000005829e-06	-1.420325e-09	-1.923718e-09
1.883820000005895e-06	-1.370481e-09	-1.856261e-09
1.894060000005961e-06	-1.322385e-09	-1.791171e-09
1.904300000006027e-06	-1.275977e-09	-1.728365e-09
1.914540000005940e-06	-1.231198e-09	-1.667764e-09
1.924780000005789e-06	-1.187991e-09	-1.609289e-09
1.935020000005638e-06	-1.146301e-09	-1.552867e-09
1.945260000005487e-06	-1.106073e-09	-1.498424e-09
1.955500000005336e-06	-1.067259e-09	-1.445893e-09
1.965740000005185e-06	-1.029806e-09	-1.395205e-09
1.975980000005034e-06	-9.936676e-10	-1.346296e-09
1.986220000004883e-06	-9.587977e-10	-1.299103e-09
1.996460000004732e-06	-9.251526e-10	-1.253568e-09
1.996987857145910e-06	-7.347536e-10	-1.427179e-09
1.997515714287088e-06	-6.621925e-10	-1.490942e-09
1.998043571428266e-06	-7.074694e-10	-1.444855e-09
1.998571428569444e-06	-8.705842e-10	-1.288918e-09
1.999099285710622e-06	-1.151537e-09	-1.023132e-09
1.999627142851800e-06	-1.550328e-09	-6.474959e-10
2.000154999992978e-06	-2.066956e-09	-1.620105e-10
2.000299285708266e-06	-5.641209e-09	3.160101e-09
2.000443571423555e-06	-1.026017e-08	7.486889e-09
2.000587857138843e-06	-1.592384e-08	1.281835e-08
2.000732142854132e-06	-2.263222e-08	1.915450e-08
2.000876428569421e-06	-3.038531e-08	2.649532e-08
2.001020714284709e-06	-3.918311e-08	3.484082e-08
2.001164999999998e-06	-4.902562e-08	4.419099e-08
2.001436428571422e-06	-6.177458e-08	5.654971e-08
2.001707857142847e-06	-7.288134e-08	6.734393e-08
2.001979285714271e-06	-8.234590e-08	7.657366e-08
2.002250714285696e-06	-9.016825e-08	8.423889e-08
2.002522142857120e-06	-9.634841e-08	9.033962e-08
2.002793571428545e-06	-1.008864e-07	9.487585e-08
2.003064999999970e-06	-1.037821e-07	9.784759e-08
2.003574999999962e-06	-1.082651e-07	1.023108e-07
2.004084999999954e-06	-1.120068e-07	1.060175e-07
2.004594999999947e-06	-1.150073e-07	1.089678e-07
2.005104999999939e-06	-1.172665e-07	1.111616e-07
2.005614999999932e-06	-1.187846e-07	1.125990e-07
2.006124999999924e-06	-1.195614e-07	1.132799e-07
2.006634999999917e-06	-1.195970e-07	1.132044e-07
2.006644999999917e-06	-1.196070e-07	1.132122e-07
2.016884999999766e-06	-1.218529e-07	1.130904e-07
2.027124999999615e-06	-1.228406e-07	1.117534e-07
2.037364999999464e-06	-1.237931e-07	1.104625e-07
2.047604999999313e-06	-1.247122e-07	1.092170e-07
2.057844999999162e-06	-1.255990e-07	1.080153e-07
2.068084999999011e-06	-1.264549e-07	1.068557e-07
2.078324999998860e-06	-1.272807e-07	1.057369e-07
2.088564999998709e-06	-1.280776e-07	1.046574e-07
2.098804999998558e-06	-1.288465e-07	1.036158e-07
2.109044999998407e-06	-1.295886e-07	1.026108e-07
2.119284999998256e-06	-1.303046e-07	1.016411e-07
2.129524999998105e-06	-1.309955e-07	1.007055e-07
2.139764999997953e-06	-1.316622e-07	9.980273e-08
2.150004999997802e-06	-1.323056e-07	9.893165e-08
2.160244999997651e-06	-1.329264e-07	9.809118e-08
2.170484999997500e-06	-1.335254e-07	9.728022e-08
2.180724999997349e-06	-1.341034e-07	9.649775e-08
2.190964999997198e-06	-1.346612e-07	9.574276e-08
2.201204999997047e-06	-1.351994e-07	9.501428e-08
2.211444999996896e-06	-1.357187e-07	9.431139e-08
2.221684999996745e-06	-1.362198e-07	9.363318e-08
2.231924999996594e-06	-1.367034e-07	9.297880e-08
2.242164999996443e-06	-1.371700e-07	9.234740e-08
2.252404999996292e-06	-1.376202e-07	9.173817e-08
2.262644999996141e-06	-1.380546e-07	9.115033e-08
2.272884999995990e-06	-1.384739e-07	9.058315e-08
2.283124999995839e-06	-1.388783e-07	9.003588e-08
2.293364999995688e-06	-1.392687e-07	8.950783e-08
2.303604999995537e-06	-1.396453e-07	8.899832e-08
2.313844999995386e-06	-1.400087e-07	8.850671e-08
2.324084999995235e-06	-1.403594e-07	8.803237e-08
2.334324999995084e-06	-1.406977e-07	8.757468e-08
2.344564999994933e-06	-1.410242e-07	8.713306e-08
2.354804999994782e-06	-1.413392e-07	8.670695e-08
2.365044999994631e-06	-1.416432e-07	8.629581e-08
2.375284999994480e-06	-1.419365e-07	8.589910e-08
2.385524999994329e-06	-1.422196e-07	8.551633e-08
2.395764999994178e-06	-1.424927e-07	8.514699e-08
2.406004999994027e-06	-1.427562e-07	8.479063e-08
2.416244999993876e-06	-1.430105e-07	8.444678e-08
2.426484999993725e-06	-1.432558e-07	8.411501e-08
2.436724999993574e-06	-1.434925e-07	8.379488e-08
2.446964999993423e-06	-1.437210e-07	8.348600e-08
2.457204999993272e-06	-1.439414e-07	8.318796e-08
2.467444999993121e-06	-1.441541e-07	8.290040e-08
2.477684999992970e-06	-1.443593e-07	8.262293e-08
2.487924999992819e-06	-1.445573e-07	8.235520e-08
2.498164999992668e-06	-1.447483e-07	8.209688e-08
2.508404999992517e-06	-1.449327e-07	8.184762e-08
2.518644999992366e-06	-1.451106e-07	8.160712e-08
2.528884999992215e-06	-1.452822e-07	8.137506e-08
2.539124999992064e-06	-1.454479e-07	8.115115e-08
2.549364999991913e-06	-1.456077e-07	8.093510e-08
2.559604999991762e-06	-1.457619e-07	8.072664e-08
2.569844999991611e-06	-1.459107e-07	8.052551e-08
2.580084999991460e-06	-1.460542e-07	8.033143e-08
2.590324999991309e-06	-1.461927e-07	8.014417e-08
2.600564999991158e-06	-1.463264e-07	7.996348e-08
2.610804999991007e-06	-1.464554e-07	7.978914e-08
2.621044999990856e-06	-1.465798e-07	7.962092e-08
2.631284999990705e-06	-1.466999e-07	7.945861e-08
2.641524999990554e-06	-1.468158e-07	7.930200e-08
2.651764999990403e-06	-1.469276e-07	7.915089e-08
2.662004999990252e-06	-1.470354e-07	7.900508e-08
2.672244999990100e-06	-1.471395e-07	7.886439e-08
2.682484999989949e-06	-1.472399e-07	7.872865e-08
2.692724999989798e-06	-1.473368e-07	7.859767e-08
2.702964999989647e-06	-1.474304e-07	7.847128e-08
2.713204999989496e-06	-1.475206e-07	7.834934e-08
2.723444999989345e-06	-1.476076e-07	7.823168e-08
2.733684999989194e-06	-1.476916e-07	7.811815e-08
2.743924999989043e-06	-1.477727e-07	7.800860e-08
2.754164999988892e-06	-1.478509e-07	7.790290e-08
2.764404999988741e-06	-1.479263e-07	7.780092e-08
2.774644999988590e-06	-1.479992e-07	7.770252e-08
2.784884999988439e-06	-1.480694e-07	7.760757e-08
2.795124999988288e-06	-1.481372e-07	7.751595e-08
2.805364999988137e-06	-1.482026e-07	7.742755e-08
2.815604999987986e-06	-1.482657e-07	7.734226e-08
2.825844999987835e-06	-1.483266e-07	7.725995e-08
2.836084999987684e-06	-1.483854e-07	7.718055e-08
2.846324999987533e-06	-1.484421e-07	7.710393e-08
2.856564999987382e-06	-1.484968e-07	7.702999e-08
2.866804999987231e-06	-1.485495e-07	7.695866e-08
2.877044999987080e-06	-1.486005e-07	7.688983e-08
2.887284999986929e-06	-1.486496e-07	7.682342e-08
2.897524999986778e-06	-1.486970e-07	7.675933e-08
2.907764999986627e-06	-1.487428e-07	7.669750e-08
2.918004999986476e-06	-1.487869e-07	7.663785e-08
2.928244999986325e-06	-1.488295e-07	7.658028e-08
2.938484999986174e-06	-1.488706e-07	7.652473e-08
2.948724999986023e-06	-1.489103e-07	7.647114e-08
2.958964999985872e-06	-1.489486e-07	7.641943e-08
2.969204999985721e-06	-1.489855e-07	7.636954e-08
2.979444999985570e-06	-1.490211e-07	7.632139e-08
2.989684999985419e-06	-1.490555e-07	7.627494e-08
2.999924999985268e-06	-1.490887e-07	7.623012e-08
3.000110714273086e-06	-1.494703e-07	7.658451e-08
3.000296428560904e-06	-1.496116e-07	7.671492e-08
3.000482142848723e-06	-1.495127e-07	7.662135e-08
3.000667857136541e-06	-1.491735e-07	7.630380e-08
3.000853571424360e-06	-1.485941e-07	7.576227e-08
3.001039285712178e-06	-1.477743e-07	7.499676e-08
3.001224999999996e-06	-1.467143e-07	7.400727e-08
3.001363571428568e-06	-1.425097e-07	7.008808e-08
3.001502142857140e-06	-1.374487e-07	6.534068e-08
3.001640714285711e-06	-1.315312e-07	5.976507e-08
3.001779285714282e-06	-1.247574e-07	5.336125e-08
3.001917857142854e-06	-1.171270e-07	4.612921e-08
3.002056428571426e-06	-1.086403e-07	3.806897e-08
3.002194999999997e-06	-9.929707e-08	2.918051e-08
3.002469285714279e-06	-8.676704e-08	1.701763e-08
3.002743571428561e-06	-7.585784e-08	6.402299e-09
3.003017857142843e-06	-6.656948e-08	-2.665488e-09
3.003292142857124e-06	-5.890195e-08	-1.018573e-08
3.003566428571406e-06	-5.285527e-08	-1.615842e-08
3.003840714285687e-06	-4.842941e-08	-2.058357e-08
3.004114999999969e-06	-4.562440e-08	-2.346118e-08
