time	V(n002)	V(n004)	V(n006)
0.000000000000000e+000	0.000000e+000	3.505323e-004	0.000000e+000
9.142857106324092e-011	4.571429e-006	3.497704e-004	9.142857e-006
1.828571421264818e-010	9.142857e-006	3.501289e-004	1.828571e-005
2.742857131897228e-010	1.371429e-005	3.516077e-004	2.742857e-005
3.657142842529637e-010	1.828571e-005	3.542070e-004	3.657143e-005
4.571428553162046e-010	2.285714e-005	3.579267e-004	4.571429e-005
5.485714263794455e-010	2.742857e-005	3.627668e-004	5.485714e-005
6.399999974426862e-010	3.200000e-005	3.687272e-004	6.400000e-005
9.854294162950294e-010	4.927147e-005	4.303119e-004	9.854294e-005
1.390847190041751e-009	6.954236e-005	5.969362e-004	1.390847e-004
1.765538102501826e-009	8.827690e-005	8.672388e-004	1.765538e-004
2.307627802841982e-009	1.153814e-004	1.488734e-003	2.307628e-004
3.036791369771196e-009	1.518396e-004	2.777486e-003	3.036791e-004
4.023437500000000e-009	2.011719e-004	5.302492e-003	4.023438e-004
4.162946428571429e-009	2.081473e-004	5.728593e-003	4.162946e-004
4.302455357142857e-009	2.151228e-004	6.167210e-003	4.302455e-004
4.441964285714286e-009	2.220982e-004	6.618343e-003	4.441964e-004
4.581473214285715e-009	2.290737e-004	7.081991e-003	4.581473e-004
4.720982142857143e-009	2.360491e-004	7.558154e-003	4.720982e-004
4.860491071428572e-009	2.430246e-004	8.046833e-003	4.860491e-004
5.000000000000000e-009	2.500000e-004	8.548028e-003	5.000000e-004
5.245964198069897e-009	2.500000e-004	9.451348e-003	5.000000e-004
5.527066138721207e-009	2.500000e-004	1.050630e-002	5.000000e-004
6.089270020023827e-009	2.500000e-004	1.260115e-002	5.000000e-004
7.065832520023827e-009	2.500000e-004	1.583454e-002	5.000000e-004
8.042395020023828e-009	2.500000e-004	1.822141e-002	5.000000e-004
9.018957520023828e-009	2.500000e-004	1.962045e-002	5.000000e-004
9.995520020023829e-009	2.500000e-004	2.013570e-002	5.000000e-004
1.097208252002383e-008	2.500000e-004	2.000495e-002	5.000000e-004
1.194864502002383e-008	2.500000e-004	1.950199e-002	5.000000e-004
1.292520752002383e-008	2.500000e-004	1.886790e-002	5.000000e-004
1.390177002002383e-008	2.500000e-004	1.827746e-002	5.000000e-004
1.487833252002383e-008	2.500000e-004	1.782964e-002	5.000000e-004
1.585489502002383e-008	2.500000e-004	1.755752e-002	5.000000e-004
1.683145752002383e-008	2.500000e-004	1.744710e-002	5.000000e-004
1.780802002002383e-008	2.500000e-004	1.745798e-002	5.000000e-004
1.878458252002383e-008	2.500000e-004	1.754152e-002	5.000000e-004
1.976114502002383e-008	2.500000e-004	1.765345e-002	5.000000e-004
2.073770752002383e-008	2.500000e-004	1.776095e-002	5.000000e-004
2.269083252002384e-008	2.500000e-004	1.789724e-002	5.000000e-004
2.464395752002384e-008	2.500000e-004	1.792079e-002	5.000000e-004
2.659708252002384e-008	2.500000e-004	1.788747e-002	5.000000e-004
2.896873430573812e-008	2.500000e-004	1.786888e-002	5.000000e-004
3.134038609145240e-008	2.500000e-004	1.785469e-002	5.000000e-004
3.371203787716668e-008	2.500000e-004	1.784489e-002	5.000000e-004
3.608368966288096e-008	2.500000e-004	1.783948e-002	5.000000e-004
3.845534144859524e-008	2.500000e-004	1.783847e-002	5.000000e-004
4.082699323430953e-008	2.500000e-004	1.784186e-002	5.000000e-004
4.319864502002380e-008	2.500000e-004	1.784964e-002	5.000000e-004
1.050000000000000e-007	2.500000e-004	1.784981e-002	5.000000e-004
1.051667504879858e-007	2.416625e-004	1.784999e-002	5.000000e-004
1.053890844719669e-007	2.305458e-004	1.785312e-002	5.000000e-004
1.058337524399291e-007	2.083124e-004	1.789832e-002	5.000000e-004
1.067230883758535e-007	1.638456e-004	1.834439e-002	5.000000e-004
1.076996508758535e-007	1.150175e-004	1.961418e-002	5.000000e-004
1.086762133758535e-007	6.618933e-005	2.179626e-002	5.000000e-004
1.090234375000000e-007	4.882813e-005	2.278174e-002	5.000000e-004
1.094357714965861e-007	2.821143e-005	2.407471e-002	5.000000e-004
1.100000000000000e-007	0.000000e+000	2.602434e-002	5.000000e-004
1.102126523095589e-007	0.000000e+000	2.680404e-002	5.000000e-004
1.104556835204834e-007	0.000000e+000	2.771425e-002	5.000000e-004
1.109417459423324e-007	0.000000e+000	2.953928e-002	5.000000e-004
1.119138707860303e-007	0.000000e+000	3.286127e-002	5.000000e-004
1.128904332860303e-007	0.000000e+000	3.540528e-002	5.000000e-004
1.138669957860303e-007	0.000000e+000	3.696266e-002	5.000000e-004
1.148435582860303e-007	0.000000e+000	3.760659e-002	5.000000e-004
1.158201207860303e-007	0.000000e+000	3.756059e-002	5.000000e-004
1.167966832860303e-007	0.000000e+000	3.709886e-002	5.000000e-004
1.177732457860303e-007	0.000000e+000	3.647107e-002	5.000000e-004
1.187498082860303e-007	0.000000e+000	3.586410e-002	5.000000e-004
1.197263707860303e-007	0.000000e+000	3.538899e-002	5.000000e-004
1.207029332860303e-007	0.000000e+000	3.508827e-002	5.000000e-004
1.216794957860303e-007	0.000000e+000	3.495404e-002	5.000000e-004
1.226560582860303e-007	0.000000e+000	3.494875e-002	5.000000e-004
1.236326207860303e-007	0.000000e+000	3.502398e-002	5.000000e-004
1.246091832860303e-007	0.000000e+000	3.513409e-002	5.000000e-004
1.255857457860303e-007	0.000000e+000	3.524412e-002	5.000000e-004
1.275388707860303e-007	0.000000e+000	3.539027e-002	5.000000e-004
1.294919957860303e-007	0.000000e+000	3.542129e-002	5.000000e-004
1.314451207860303e-007	0.000000e+000	3.539008e-002	5.000000e-004
1.338167725717445e-007	0.000000e+000	3.537001e-002	5.000000e-004
1.361884243574588e-007	0.000000e+000	3.535467e-002	5.000000e-004
1.385600761431731e-007	0.000000e+000	3.534406e-002	5.000000e-004
1.409317279288874e-007	0.000000e+000	3.533819e-002	5.000000e-004
1.433033797146016e-007	0.000000e+000	3.533705e-002	5.000000e-004
1.456750315003159e-007	0.000000e+000	3.534064e-002	5.000000e-004
1.480466832860302e-007	0.000000e+000	3.534896e-002	5.000000e-004
2.000000000000000e-007	0.000000e+000	3.534909e-002	5.000000e-004
2.001756662216180e-007	8.783311e-006	3.534886e-002	5.000000e-004
2.004098878504421e-007	2.049439e-005	3.534503e-002	5.000000e-004
2.008783311080902e-007	4.391656e-005	3.529106e-002	5.000000e-004
2.018152176233864e-007	9.076088e-005	3.477163e-002	5.000000e-004
2.027917801233864e-007	1.395890e-004	3.341741e-002	5.000000e-004
2.037683426233864e-007	1.884171e-004	3.115308e-002	5.000000e-004
2.040234375000000e-007	2.011719e-004	3.041924e-002	5.000000e-004
2.045336272532272e-007	2.266814e-004	2.880472e-002	5.000000e-004
2.050000000000000e-007	2.500000e-004	2.718099e-002	5.000000e-004
2.053264609227410e-007	2.500000e-004	2.597328e-002	4.673539e-004
2.056995591201592e-007	2.500000e-004	2.451862e-002	4.300441e-004
2.064457555149958e-007	2.500000e-004	2.128392e-002	3.554244e-004
2.074223180149958e-007	2.500000e-004	1.627576e-002	2.577682e-004
2.083988805149958e-007	2.500000e-004	1.038692e-002	1.601119e-004
2.090234375000000e-007	2.500000e-004	6.217847e-003	9.765625e-005
2.100000000000000e-007	2.500000e-004	-7.414265e-004	0.000000e+000
2.101929209153120e-007	2.500000e-004	-2.166932e-003	0.000000e+000
2.104501488023946e-007	2.500000e-004	-4.072709e-003	0.000000e+000
2.109646045765599e-007	2.500000e-004	-7.796713e-003	0.000000e+000
2.115724106133260e-007	2.500000e-004	-1.182657e-002	0.000000e+000
2.124303123598650e-007	2.500000e-004	-1.641793e-002	0.000000e+000
2.134068748598650e-007	2.500000e-004	-1.983716e-002	0.000000e+000
2.143834373598650e-007	2.500000e-004	-2.141860e-002	0.000000e+000
2.153599998598650e-007	2.500000e-004	-2.155569e-002	0.000000e+000
2.163365623598650e-007	2.500000e-004	-2.077645e-002	0.000000e+000
2.173131248598650e-007	2.500000e-004	-1.958476e-002	0.000000e+000
2.182896873598650e-007	2.500000e-004	-1.837251e-002	0.000000e+000
2.192662498598650e-007	2.500000e-004	-1.738535e-002	0.000000e+000
2.202428123598650e-007	2.500000e-004	-1.673040e-002	0.000000e+000
2.212193748598650e-007	2.500000e-004	-1.640870e-002	0.000000e+000
2.221959373598650e-007	2.500000e-004	-1.635549e-002	0.000000e+000
2.231724998598650e-007	2.500000e-004	-1.647821e-002	0.000000e+000
2.241490623598650e-007	2.500000e-004	-1.668533e-002	0.000000e+000
2.251256248598650e-007	2.500000e-004	-1.690386e-002	0.000000e+000
2.261021873598650e-007	2.500000e-004	-1.708659e-002	0.000000e+000
2.280553123598650e-007	2.500000e-004	-1.727607e-002	0.000000e+000
2.290318748598650e-007	2.500000e-004	-1.729096e-002	0.000000e+000
2.300084373598650e-007	2.500000e-004	-1.727226e-002	0.000000e+000
2.309849998598650e-007	2.500000e-004	-1.723651e-002	0.000000e+000
2.329381248598650e-007	2.500000e-004	-1.716356e-002	0.000000e+000
2.344727230741507e-007	2.500000e-004	-1.714948e-002	0.000000e+000
2.360073212884364e-007	2.500000e-004	-1.713959e-002	0.000000e+000
2.375419195027222e-007	2.500000e-004	-1.713388e-002	0.000000e+000
2.390765177170079e-007	2.500000e-004	-1.713235e-002	0.000000e+000
2.406111159312936e-007	2.500000e-004	-1.713501e-002	0.000000e+000
2.421457141455793e-007	2.500000e-004	-1.714186e-002	0.000000e+000
2.436803123598651e-007	2.500000e-004	-1.715289e-002	0.000000e+000
3.050000000000000e-007	2.500000e-004	-1.714874e-002	0.000000e+000
3.050976562500000e-007	2.451172e-004	-1.714855e-002	0.000000e+000
3.052929687500000e-007	2.353516e-004	-1.714694e-002	0.000000e+000
3.056835937500000e-007	2.158203e-004	-1.712215e-002	0.000000e+000
3.064648437500000e-007	1.767578e-004	-1.684234e-002	0.000000e+000
3.074414062500001e-007	1.279297e-004	-1.580606e-002	0.000000e+000
3.084179687500001e-007	7.910156e-005	-1.386158e-002	0.000000e+000
3.090234375000000e-007	4.882813e-005	-1.221287e-002	0.000000e+000
3.100000000000000e-007	0.000000e+000	-8.991224e-003	0.000000e+000
3.102929687500000e-007	0.000000e+000	-7.911363e-003	0.000000e+000
3.106835937500000e-007	0.000000e+000	-6.442648e-003	0.000000e+000
3.112555175352216e-007	0.000000e+000	-4.334440e-003	0.000000e+000
3.117106691893305e-007	0.000000e+000	-2.775664e-003	0.000000e+000
3.122647394471593e-007	0.000000e+000	-1.112354e-003	0.000000e+000
3.129123403234672e-007	0.000000e+000	4.430631e-004	0.000000e+000
3.136988356188098e-007	0.000000e+000	1.737767e-003	0.000000e+000
3.146753981188099e-007	0.000000e+000	2.515402e-003	0.000000e+000
3.156519606188099e-007	0.000000e+000	2.570355e-003	0.000000e+000
3.164897799966217e-007	0.000000e+000	2.239245e-003	0.000000e+000
3.172814883531303e-007	0.000000e+000	1.766289e-003	0.000000e+000
3.181272120565642e-007	0.000000e+000	1.222854e-003	0.000000e+000
3.189299543494327e-007	0.000000e+000	7.559274e-004	0.000000e+000
3.197604603966021e-007	0.000000e+000	3.767883e-004	0.000000e+000
3.205810643747441e-007	0.000000e+000	1.252109e-004	0.000000e+000
3.215576268747441e-007	0.000000e+000	-2.355222e-005	0.000000e+000
3.225341893747441e-007	0.000000e+000	-4.191008e-005	0.000000e+000
3.233970561865523e-007	0.000000e+000	1.396772e-005	0.000000e+000
3.243245840950475e-007	0.000000e+000	1.105358e-004	0.000000e+000
3.251914915824633e-007	0.000000e+000	2.081020e-004	0.000000e+000
3.261680540824633e-007	0.000000e+000	3.034353e-004	0.000000e+000
3.271446165824633e-007	0.000000e+000	3.714370e-004	0.000000e+000
3.281211790824634e-007	0.000000e+000	4.092571e-004	0.000000e+000
3.290977415824634e-007	0.000000e+000	4.210575e-004	0.000000e+000
3.300743040824634e-007	0.000000e+000	4.145043e-004	0.000000e+000
3.310508665824634e-007	0.000000e+000	3.979225e-004	0.000000e+000
3.330039915824635e-007	0.000000e+000	3.609156e-004	0.000000e+000
3.339805540824635e-007	0.000000e+000	3.480961e-004	0.000000e+000
3.349571165824635e-007	0.000000e+000	3.406717e-004	0.000000e+000
3.359336790824636e-007	0.000000e+000	3.380285e-004	0.000000e+000
3.369102415824636e-007	0.000000e+000	3.388511e-004	0.000000e+000
3.377472951538922e-007	0.000000e+000	3.419886e-004	0.000000e+000
3.385843487253208e-007	0.000000e+000	3.447417e-004	0.000000e+000
3.394214022967494e-007	0.000000e+000	3.471103e-004	0.000000e+000
3.402584558681779e-007	0.000000e+000	3.490945e-004	0.000000e+000
3.410955094396065e-007	0.000000e+000	3.506942e-004	0.000000e+000
3.419325630110351e-007	0.000000e+000	3.519095e-004	0.000000e+000
3.427696165824637e-007	0.000000e+000	3.527403e-004	0.000000e+000
3.463968487253210e-007	0.000000e+000	3.517623e-004	0.000000e+000
3.500240808681782e-007	0.000000e+000	3.510052e-004	0.000000e+000
3.536513130110354e-007	0.000000e+000	3.504689e-004	0.000000e+000
3.572785451538927e-007	0.000000e+000	3.501536e-004	0.000000e+000
3.609057772967499e-007	0.000000e+000	3.500591e-004	0.000000e+000
3.645330094396071e-007	0.000000e+000	3.501855e-004	0.000000e+000
3.681602415824643e-007	0.000000e+000	3.505328e-004	0.000000e+000
4.000000000000000e-007	0.000000e+000	3.505337e-004	0.000000e+000
4.000976562500000e-007	4.882812e-006	3.507306e-004	9.765625e-006
4.002929687500000e-007	1.464844e-005	3.523367e-004	2.929687e-005
4.006835937500000e-007	3.417969e-005	3.771280e-004	6.835938e-005
4.010610464496891e-007	5.305232e-005	4.575004e-004	1.061046e-004
4.014686283617338e-007	7.343142e-005	6.481726e-004	1.468628e-004
4.018635357563522e-007	9.317679e-005	9.638531e-004	1.863536e-004
4.024293534532518e-007	1.214677e-004	1.672452e-003	2.429353e-004
4.032422397496750e-007	1.621120e-004	3.236402e-003	3.242240e-004
4.040234375000000e-007	2.011719e-004	5.310608e-003	4.023438e-004
4.050000000000000e-007	2.500000e-004	8.535760e-003	5.000000e-004
4.052929687500000e-007	2.500000e-004	9.615032e-003	5.000000e-004
4.056835937500000e-007	2.500000e-004	1.108233e-002	5.000000e-004
4.064648437500000e-007	2.500000e-004	1.390881e-002	5.000000e-004
4.074414062500001e-007	2.500000e-004	1.685600e-002	5.000000e-004
4.084179687500001e-007	2.500000e-004	1.886640e-002	5.000000e-004
4.093945312500001e-007	2.500000e-004	1.990723e-002	5.000000e-004
4.103710937500001e-007	2.500000e-004	2.014505e-002	5.000000e-004
4.113476562500001e-007	2.500000e-004	1.984171e-002	5.000000e-004
4.123242187500002e-007	2.500000e-004	1.926425e-002	5.000000e-004
4.133007812500002e-007	2.500000e-004	1.863087e-002	5.000000e-004
4.142773437500002e-007	2.500000e-004	1.808736e-002	5.000000e-004
4.152539062500002e-007	2.500000e-004	1.770571e-002	5.000000e-004
4.162304687500003e-007	2.500000e-004	1.749871e-002	5.000000e-004
4.172070312500003e-007	2.500000e-004	1.743995e-002	5.000000e-004
4.181835937500003e-007	2.500000e-004	1.748408e-002	5.000000e-004
4.191601562500003e-007	2.500000e-004	1.758299e-002	5.000000e-004
4.201367187500004e-007	2.500000e-004	1.769628e-002	5.000000e-004
4.220898437500004e-007	2.500000e-004	1.786833e-002	5.000000e-004
4.240429687500005e-007	2.500000e-004	1.792268e-002	5.000000e-004
4.259960937500005e-007	2.500000e-004	1.789995e-002	5.000000e-004
4.273911830357148e-007	2.500000e-004	1.787482e-002	5.000000e-004
4.287862723214291e-007	2.500000e-004	1.785568e-002	5.000000e-004
4.301813616071434e-007	2.500000e-004	1.784254e-002	5.000000e-004
4.315764508928578e-007	2.500000e-004	1.783539e-002	5.000000e-004
4.329715401785721e-007	2.500000e-004	1.783423e-002	5.000000e-004
4.343666294642864e-007	2.500000e-004	1.783907e-002	5.000000e-004
4.357617187500007e-007	2.500000e-004	1.784989e-002	5.000000e-004
5.050000000000000e-007	2.500000e-004	1.784981e-002	5.000000e-004
5.050976562500000e-007	2.451172e-004	1.785001e-002	5.000000e-004
5.052929687500000e-007	2.353516e-004	1.785161e-002	5.000000e-004
5.056835937500000e-007	2.158203e-004	1.787640e-002	5.000000e-004
5.064648437500000e-007	1.767578e-004	1.815621e-002	5.000000e-004
5.074414062500000e-007	1.279297e-004	1.919249e-002	5.000000e-004
5.084179687500001e-007	7.910156e-005	2.113697e-002	5.000000e-004
5.090234374999999e-007	4.882813e-005	2.278569e-002	5.000000e-004
5.100000000000000e-007	0.000000e+000	2.600733e-002	5.000000e-004
5.102929687499999e-007	0.000000e+000	2.708719e-002	5.000000e-004
5.106835937500000e-007	0.000000e+000	2.855590e-002	5.000000e-004
5.114648437500000e-007	0.000000e+000	3.138702e-002	5.000000e-004
5.124414062500000e-007	0.000000e+000	3.434165e-002	5.000000e-004
5.134179687500000e-007	0.000000e+000	3.635929e-002	5.000000e-004
5.143945312500000e-007	0.000000e+000	3.740584e-002	5.000000e-004
5.153710937500001e-007	0.000000e+000	3.764732e-002	5.000000e-004
5.163476562500001e-007	0.000000e+000	3.734565e-002	5.000000e-004
5.173242187500001e-007	0.000000e+000	3.676831e-002	5.000000e-004
5.183007812500001e-007	0.000000e+000	3.613405e-002	5.000000e-004
5.192773437500002e-007	0.000000e+000	3.558924e-002	5.000000e-004
5.202539062500002e-007	0.000000e+000	3.520628e-002	5.000000e-004
5.212304687500002e-007	0.000000e+000	3.499822e-002	5.000000e-004
5.222070312500002e-007	0.000000e+000	3.493875e-002	5.000000e-004
5.231835937500003e-007	0.000000e+000	3.498254e-002	5.000000e-004
5.241601562500003e-007	0.000000e+000	3.508141e-002	5.000000e-004
5.251367187500003e-007	0.000000e+000	3.519483e-002	5.000000e-004
5.270898437500004e-007	0.000000e+000	3.536734e-002	5.000000e-004
5.290429687500004e-007	0.000000e+000	3.542203e-002	5.000000e-004
5.309960937500004e-007	0.000000e+000	3.539937e-002	5.000000e-004
5.323911830357148e-007	0.000000e+000	3.537419e-002	5.000000e-004
5.337862723214290e-007	0.000000e+000	3.535501e-002	5.000000e-004
5.351813616071434e-007	0.000000e+000	3.534183e-002	5.000000e-004
5.365764508928577e-007	0.000000e+000	3.533466e-002	5.000000e-004
5.379715401785721e-007	0.000000e+000	3.533349e-002	5.000000e-004
5.393666294642863e-007	0.000000e+000	3.533832e-002	5.000000e-004
5.407617187500007e-007	0.000000e+000	3.534916e-002	5.000000e-004
6.000000000000000e-007	0.000000e+000	3.534909e-002	5.000000e-004
6.000976562499999e-007	4.882812e-006	3.534889e-002	5.000000e-004
6.002929687499999e-007	1.464844e-005	3.534728e-002	5.000000e-004
6.006835937499999e-007	3.417969e-005	3.532249e-002	5.000000e-004
6.014648437500000e-007	7.324219e-005	3.504268e-002	5.000000e-004
6.024414062500000e-007	1.220703e-004	3.400641e-002	5.000000e-004
6.034179687500000e-007	1.708984e-004	3.206192e-002	5.000000e-004
6.040234374999999e-007	2.011719e-004	3.041321e-002	5.000000e-004
6.049999999999999e-007	2.500000e-004	2.719157e-002	5.000000e-004
6.052929687499999e-007	2.500000e-004	2.610810e-002	4.707031e-004
6.056835937499999e-007	2.500000e-004	2.458980e-002	4.316406e-004
6.064648437499999e-007	2.500000e-004	2.119908e-002	3.535156e-004
6.074414062499999e-007	2.500000e-004	1.617189e-002	2.558594e-004
6.084179687500000e-007	2.500000e-004	1.026527e-002	1.582031e-004
6.090234374999999e-007	2.500000e-004	6.218360e-003	9.765625e-005
6.100000000000000e-007	2.500000e-004	-7.418540e-004	0.000000e+000
6.101931534077795e-007	2.500000e-004	-2.169224e-003	0.000000e+000
6.104506912848188e-007	2.500000e-004	-4.077441e-003	0.000000e+000
6.109657670388975e-007	2.500000e-004	-7.805789e-003	0.000000e+000
6.115172987915164e-007	2.500000e-004	-1.148770e-002	0.000000e+000
6.123204076045808e-007	2.500000e-004	-1.591305e-002	0.000000e+000
6.132331488898302e-007	2.500000e-004	-1.936796e-002	0.000000e+000
6.142097113898302e-007	2.500000e-004	-2.124998e-002	0.000000e+000
6.151862738898303e-007	2.500000e-004	-2.160550e-002	0.000000e+000
6.161628363898303e-007	2.500000e-004	-2.095106e-002	0.000000e+000
6.171393988898303e-007	2.500000e-004	-1.980212e-002	0.000000e+000
6.181159613898303e-007	2.500000e-004	-1.857357e-002	0.000000e+000
6.190925238898304e-007	2.500000e-004	-1.753696e-002	0.000000e+000
6.200690863898304e-007	2.500000e-004	-1.682180e-002	0.000000e+000
6.210456488898304e-007	2.500000e-004	-1.644506e-002	0.000000e+000
6.220222113898304e-007	2.500000e-004	-1.635079e-002	0.000000e+000
6.229987738898305e-007	2.500000e-004	-1.644913e-002	0.000000e+000
6.239753363898305e-007	2.500000e-004	-1.664692e-002	0.000000e+000
6.249518988898305e-007	2.500000e-004	-1.686723e-002	0.000000e+000
6.259284613898305e-007	2.500000e-004	-1.705823e-002	0.000000e+000
6.278815863898306e-007	2.500000e-004	-1.726842e-002	0.000000e+000
6.288581488898306e-007	2.500000e-004	-1.729100e-002	0.000000e+000
6.298347113898306e-007	2.500000e-004	-1.727703e-002	0.000000e+000
6.308112738898306e-007	2.500000e-004	-1.724326e-002	0.000000e+000
6.327643988898307e-007	2.500000e-004	-1.716884e-002	0.000000e+000
6.342989971041164e-007	2.500000e-004	-1.715218e-002	0.000000e+000
6.358335953184022e-007	2.500000e-004	-1.714031e-002	0.000000e+000
6.373681935326880e-007	2.500000e-004	-1.713324e-002	0.000000e+000
